T2FEC 000:013.000   SEGGER J-Link V6.86 Log File
T2FEC 000:013.269   DLL Compiled: Sep 24 2020 17:31:31
T2FEC 000:013.281   Logging started @ 2022-06-29 03:20
T2FEC 000:013.292 - 13.297ms
T2FEC 000:013.321 JLINK_SetWarnOutHandler(...)
T2FEC 000:013.335 - 0.019ms
T2FEC 000:013.351 JLINK_OpenEx(...)
T2FEC 000:016.466   Firmware: J-Link V9 compiled May  7 2021 16:26:12
T2FEC 000:016.876   Decompressing FW timestamp took 302 us
T2FEC 000:026.691   Hardware: V9.40
T2FEC 000:026.754   S/N: 59418918
T2FEC 000:026.771   OEM: SEGGER
T2FEC 000:026.793   Feature(s): RDI, GDB, FlashDL, FlashBP, JFlash
T2FEC 000:029.560   TELNET listener socket opened on port 19021
T2FEC 000:029.798   WEBSRV Starting webserver
T2FEC 000:030.151   WEBSRV Webserver running on local port 19080
T2FEC 000:030.179 - 16.834ms returns "O.K."
T2FEC 000:030.215 JLINK_GetEmuCaps()
T2FEC 000:030.228 - 0.018ms returns 0xB9FF7BBF
T2FEC 000:030.259 JLINK_TIF_GetAvailable(...)
T2FEC 000:030.980 - 0.736ms
T2FEC 000:031.010 JLINK_SetErrorOutHandler(...)
T2FEC 000:031.022 - 0.017ms
T2FEC 000:031.070 JLINK_ExecCommand("ProjectFile = "D:\Products\products\sw32_ms\code\MS9333_ms9601_MS8006\JLinkSettings.ini"", ...). 
T2FEC 000:126.562   Device "CORTEX-M0" selected.
T2FEC 000:240.107 - 209.055ms returns 0x00
T2FEC 000:247.579 JLINK_ExecCommand("Device = CX32L003F8", ...). 
T2FEC 000:256.347   Device "CORTEX-M0" selected.
T2FEC 000:344.307 - 96.708ms returns 0x00
T2FEC 000:344.447 JLINK_GetHardwareVersion()
T2FEC 000:344.465 - 0.023ms returns 94000
T2FEC 000:344.503 JLINK_GetDLLVersion()
T2FEC 000:344.515 - 0.017ms returns 68600
T2FEC 000:344.530 JLINK_GetOEMString(...)
T2FEC 000:344.549 JLINK_GetFirmwareString(...)
T2FEC 000:344.561 - 0.018ms
T2FEC 000:367.385 JLINK_GetDLLVersion()
T2FEC 000:367.418 - 0.039ms returns 68600
T2FEC 000:367.434 JLINK_GetCompileDateTime()
T2FEC 000:367.444 - 0.015ms
T2FEC 000:375.066 JLINK_GetFirmwareString(...)
T2FEC 000:375.097 - 0.036ms
T2FEC 000:383.794 JLINK_GetHardwareVersion()
T2FEC 000:383.821 - 0.033ms returns 94000
T2FEC 000:391.706 JLINK_GetSN()
T2FEC 000:391.735 - 0.035ms returns 59418918
T2FEC 000:401.250 JLINK_GetOEMString(...)
T2FEC 000:417.340 JLINK_TIF_Select(JLINKARM_TIF_SWD)
T2FEC 000:420.162 - 2.842ms returns 0x00
T2FEC 000:420.197 JLINK_HasError()
T2FEC 000:420.240 JLINK_SetSpeed(5000)
T2FEC 000:420.834 - 0.609ms
T2FEC 000:420.869 JLINK_GetId()
T2FEC 000:432.729   Found SW-DP with ID 0x0BC11477
T2FEC 000:447.440   DPIDR: 0x0BC11477
T2FEC 000:454.998   Scanning AP map to find all available APs
T2FEC 000:465.133   AP[1]: Stopped AP scan as end of AP map has been reached
T2FEC 000:473.072   AP[0]: AHB-AP (IDR: 0x04770031)
T2FEC 000:482.278   Iterating through AP map to find AHB-AP to use
T2FEC 000:491.559   AP[0]: Core found
T2FEC 000:503.354   AP[0]: AHB-AP ROM base: 0xE00FF000
T2FEC 000:513.244   CPUID register: 0x410CC601. Implementer code: 0x41 (ARM)
T2FEC 000:520.006   Found Cortex-M0 r0p1, Little endian.
T2FEC 000:622.342   -- Max. mem block: 0x00010E60
T2FEC 000:622.407   CPU_ReadMem(4 bytes @ 0xE000EDF0)
T2FEC 000:623.742   CPU_WriteMem(4 bytes @ 0xE000EDF0)
T2FEC 000:624.381   CPU_ReadMem(4 bytes @ 0xE0002000)
T2FEC 000:632.630   FPUnit: 4 code (BP) slots and 0 literal slots
T2FEC 000:632.671   CPU_ReadMem(4 bytes @ 0xE000EDFC)
T2FEC 000:633.568   CPU_WriteMem(4 bytes @ 0xE000EDFC)
T2FEC 000:634.259   CPU_ReadMem(4 bytes @ 0xE0001000)
T2FEC 000:634.880   CPU_WriteMem(4 bytes @ 0xE0001000)
T2FEC 000:642.708   CoreSight components:
T2FEC 000:651.658   ROMTbl[0] @ E00FF000
T2FEC 000:651.697   CPU_ReadMem(64 bytes @ 0xE00FF000)
T2FEC 000:652.692   CPU_ReadMem(32 bytes @ 0xE000EFE0)
T2FEC 000:662.802   ROMTbl[0][0]: E000E000, CID: B105E00D, PID: 000BB008 SCS
T2FEC 000:662.981   CPU_ReadMem(32 bytes @ 0xE0001FE0)
T2FEC 000:671.132   ROMTbl[0][1]: E0001000, CID: B105E00D, PID: 000BB00A DWT
T2FEC 000:671.168   CPU_ReadMem(32 bytes @ 0xE0002FE0)
T2FEC 000:681.433   ROMTbl[0][2]: E0002000, CID: B105E00D, PID: 000BB00B FPB
T2FEC 000:682.179 - 261.324ms returns 0x0BC11477
T2FEC 000:682.281 JLINK_GetDLLVersion()
T2FEC 000:682.297 - 0.022ms returns 68600
T2FEC 000:682.353 JLINK_CORE_GetFound()
T2FEC 000:682.366 - 0.019ms returns 0x60000FF
T2FEC 000:682.382 JLINK_GetDebugInfo(0x100 = JLINKARM_ROM_TABLE_ADDR_INDEX)
T2FEC 000:682.395   Value=0xE00FF000
T2FEC 000:682.411 - 0.034ms returns 0
T2FEC 000:690.156 JLINK_GetDebugInfo(0x100 = JLINKARM_ROM_TABLE_ADDR_INDEX)
T2FEC 000:690.194   Value=0xE00FF000
T2FEC 000:690.210 - 0.059ms returns 0
T2FEC 000:690.226 JLINK_GetDebugInfo(0x101 = JLINKARM_DEBUG_INFO_ETM_ADDR_INDEX)
T2FEC 000:690.236   Value=0x00000000
T2FEC 000:690.251 - 0.031ms returns 0
T2FEC 000:690.289 JLINK_ReadMemEx(0xE0041FF0, 0x10 Bytes, Flags = 0x02000004)
T2FEC 000:690.355   CPU_ReadMem(16 bytes @ 0xE0041FF0)
T2FEC 000:691.403   Data:  00 00 00 00 00 00 00 00 00 00 00 00 00 00 00 00
T2FEC 000:691.434 - 1.150ms returns 16 (0x10)
T2FEC 000:691.459 JLINK_GetDebugInfo(0x102 = JLINKARM_DEBUG_INFO_MTB_ADDR_INDEX)
T2FEC 000:691.473   Value=0x00000000
T2FEC 000:691.488 - 0.035ms returns 0
T2FEC 000:691.504 JLINK_GetDebugInfo(0x103 = JLINKARM_DEBUG_INFO_TPIU_ADDR_INDEX)
T2FEC 000:691.516   Value=0x00000000
T2FEC 000:691.533 - 0.034ms returns 0
T2FEC 000:691.548 JLINK_ReadMemEx(0xE0040FF0, 0x10 Bytes, Flags = 0x02000004)
T2FEC 000:691.574   CPU_ReadMem(16 bytes @ 0xE0040FF0)
T2FEC 000:692.589   Data:  00 00 00 00 00 00 00 00 00 00 00 00 00 00 00 00
T2FEC 000:692.622 - 1.081ms returns 16 (0x10)
T2FEC 000:692.645 JLINK_GetDebugInfo(0x104 = JLINKARM_DEBUG_INFO_ITM_ADDR_INDEX)
T2FEC 000:692.659   Value=0xE0000000
T2FEC 000:692.676 - 0.036ms returns 0
T2FEC 000:692.692 JLINK_GetDebugInfo(0x105 = JLINKARM_DEBUG_INFO_DWT_ADDR_INDEX)
T2FEC 000:692.704   Value=0xE0001000
T2FEC 000:692.720 - 0.033ms returns 0
T2FEC 000:692.736 JLINK_GetDebugInfo(0x106 = JLINKARM_DEBUG_INFO_FPB_ADDR_INDEX)
T2FEC 000:692.748   Value=0xE0002000
T2FEC 000:692.764 - 0.033ms returns 0
T2FEC 000:692.779 JLINK_GetDebugInfo(0x107 = JLINKARM_DEBUG_INFO_NVIC_ADDR_INDEX)
T2FEC 000:692.790   Value=0xE000E000
T2FEC 000:692.807 - 0.033ms returns 0
T2FEC 000:692.821 JLINK_GetDebugInfo(0x10C = JLINKARM_DEBUG_INFO_DBG_ADDR_INDEX)
T2FEC 000:692.834   Value=0xE000EDF0
T2FEC 000:692.851 - 0.034ms returns 0
T2FEC 000:692.866 JLINK_GetDebugInfo(0x01 = Unknown)
T2FEC 000:692.878   Value=0x00000000
T2FEC 000:692.894 - 0.034ms returns 0
T2FEC 000:692.912 JLINK_ReadMemU32(0xE000ED00, 0x1 Items)
T2FEC 000:692.939   CPU_ReadMem(4 bytes @ 0xE000ED00)
T2FEC 000:693.722   Data:  01 C6 0C 41
T2FEC 000:693.753   Debug reg: CPUID
T2FEC 000:693.768 - 0.861ms returns 1 (0x1)
T2FEC 000:693.788 JLINK_GetDebugInfo(0x10F = JLINKARM_DEBUG_INFO_HAS_CORTEX_M_SECURITY_EXT_INDEX)
T2FEC 000:693.800   Value=0x00000000
T2FEC 000:693.814 - 0.031ms returns 0
T2FEC 000:693.833 JLINK_HasError()
T2FEC 000:693.850 JLINK_SetResetType(JLINKARM_CM3_RESET_TYPE_RESETPIN)
T2FEC 000:693.861 - 0.016ms returns JLINKARM_CM3_RESET_TYPE_NORMAL
T2FEC 000:693.876 JLINK_Reset()
T2FEC 000:694.244   CPU is running
T2FEC 000:694.281   CPU_WriteMem(4 bytes @ 0xE000EDF0)
T2FEC 000:695.063   CPU is running
T2FEC 000:695.110   CPU_WriteMem(4 bytes @ 0xE000EDFC)
T2FEC 000:703.894   Reset: Halt core after reset via DEMCR.VC_CORERESET.
T2FEC 000:712.834   Reset: Reset device via reset pin
T2FEC 000:837.848   CPU_WriteMem(4 bytes @ 0xE000EDFC)
T2FEC 000:844.212   CPU_ReadMem(4 bytes @ 0xE000EDF0)
T2FEC 000:845.220   CPU_WriteMem(4 bytes @ 0xE0002000)
T2FEC 000:845.986   CPU_ReadMem(4 bytes @ 0xE000EDFC)
T2FEC 000:846.593   CPU_ReadMem(4 bytes @ 0xE0001000)
T2FEC 000:847.258   CPU_WriteMem(4 bytes @ 0xE0001000)
T2FEC 000:847.979 - 154.120ms
T2FEC 000:848.016 JLINK_Halt()
T2FEC 000:848.026 - 0.014ms returns 0x00
T2FEC 000:848.076 JLINK_ReadMemU32(0xE000EDF0, 0x1 Items)
T2FEC 000:848.107   CPU_ReadMem(4 bytes @ 0xE000EDF0)
T2FEC 000:849.068   Data:  03 00 03 00
T2FEC 000:849.092   Debug reg: DHCSR
T2FEC 000:849.108 - 1.037ms returns 1 (0x1)
T2FEC 000:849.146 JLINK_WriteU32_64(0xE000EDF0, 0xA05F0003)
T2FEC 000:849.170   Debug reg: DHCSR
T2FEC 000:849.281   CPU_WriteMem(4 bytes @ 0xE000EDF0)
T2FEC 000:850.312 - 1.179ms returns 0 (0x00000000)
T2FEC 000:850.342 JLINK_WriteU32_64(0xE000EDFC, 0x01000000)
T2FEC 000:850.355   Debug reg: DEMCR
T2FEC 000:850.383   CPU_WriteMem(4 bytes @ 0xE000EDFC)
T2FEC 000:850.945 - 0.622ms returns 0 (0x00000000)
T2FEC 000:884.315 JLINK_GetHWStatus(...)
T2FEC 000:884.959 - 0.663ms returns 0
T2FEC 000:909.759 JLINK_GetNumBPUnits(Type = 0xFFFFFF00)
T2FEC 000:909.796 - 0.043ms returns 0x04
T2FEC 000:909.812 JLINK_GetNumBPUnits(Type = 0xF0)
T2FEC 000:909.823 - 0.016ms returns 0x2000
T2FEC 000:909.837 JLINK_GetNumWPUnits()
T2FEC 000:909.847 - 0.016ms returns 2
T2FEC 000:935.881 JLINK_GetSpeed()
T2FEC 000:935.910 - 0.035ms returns 4000
T2FEC 000:952.175 JLINK_ReadMemU32(0xE000E004, 0x1 Items)
T2FEC 000:952.220   CPU_ReadMem(4 bytes @ 0xE000E004)
T2FEC 000:953.256   Data:  00 00 00 00
T2FEC 000:953.284 - 1.115ms returns 1 (0x1)
T2FEC 000:953.323 JLINK_Halt()
T2FEC 000:953.336 - 0.019ms returns 0x00
T2FEC 000:953.352 JLINK_IsHalted()
T2FEC 000:953.365 - 0.018ms returns TRUE
T2FEC 000:958.413 JLINK_WriteMem(0x20000000, 0x38C Bytes, ...)
T2FEC 000:958.437   Data:  00 BE 0A E0 0D 78 2D 06 68 40 08 24 40 00 00 D3 ...
T2FEC 000:959.325   CPU_WriteMem(908 bytes @ 0x20000000)
T2FEC 000:963.265 - 4.875ms returns 0x38C
T2FEC 000:963.356 JLINK_HasError()
T2FEC 000:963.380 JLINK_WriteReg(R0, 0x00000000)
T2FEC 000:963.408 - 0.034ms returns 0
T2FEC 000:963.425 JLINK_WriteReg(R1, 0x00B71B00)
T2FEC 000:963.438 - 0.018ms returns 0
T2FEC 000:963.453 JLINK_WriteReg(R2, 0x00000001)
T2FEC 000:963.466 - 0.018ms returns 0
T2FEC 000:963.482 JLINK_WriteReg(R3, 0x00000000)
T2FEC 000:963.493 - 0.017ms returns 0
T2FEC 000:963.509 JLINK_WriteReg(R4, 0x00000000)
T2FEC 000:963.522 - 0.019ms returns 0
T2FEC 000:963.538 JLINK_WriteReg(R5, 0x00000000)
T2FEC 000:963.550 - 0.017ms returns 0
T2FEC 000:963.566 JLINK_WriteReg(R6, 0x00000000)
T2FEC 000:963.579 - 0.019ms returns 0
T2FEC 000:963.595 JLINK_WriteReg(R7, 0x00000000)
T2FEC 000:963.607 - 0.017ms returns 0
T2FEC 000:963.623 JLINK_WriteReg(R8, 0x00000000)
T2FEC 000:963.665 - 0.048ms returns 0
T2FEC 000:963.682 JLINK_WriteReg(R9, 0x20000388)
T2FEC 000:963.695 - 0.019ms returns 0
T2FEC 000:963.711 JLINK_WriteReg(R10, 0x00000000)
T2FEC 000:963.728 - 0.040ms returns 0
T2FEC 000:963.767 JLINK_WriteReg(R11, 0x00000000)
T2FEC 000:963.781 - 0.020ms returns 0
T2FEC 000:963.796 JLINK_WriteReg(R12, 0x00000000)
T2FEC 000:963.809 - 0.017ms returns 0
T2FEC 000:963.824 JLINK_WriteReg(R13 (SP), 0x20001000)
T2FEC 000:963.837 - 0.019ms returns 0
T2FEC 000:963.851 JLINK_WriteReg(R14, 0x20000001)
T2FEC 000:963.863 - 0.017ms returns 0
T2FEC 000:963.878 JLINK_WriteReg(R15 (PC), 0x20000038)
T2FEC 000:963.903 - 0.030ms returns 0
T2FEC 000:963.918 JLINK_WriteReg(XPSR, 0x01000000)
T2FEC 000:963.931 - 0.019ms returns 0
T2FEC 000:963.947 JLINK_WriteReg(MSP, 0x20001000)
T2FEC 000:963.959 - 0.018ms returns 0
T2FEC 000:963.974 JLINK_WriteReg(PSP, 0x20001000)
T2FEC 000:963.986 - 0.017ms returns 0
T2FEC 000:964.000 JLINK_WriteReg(CFBP, 0x00000000)
T2FEC 000:964.011 - 0.017ms returns 0
T2FEC 000:964.026 JLINK_SetBPEx(Addr = 0x20000000, Type = 0xFFFFFFF2)
T2FEC 000:964.046   CPU_ReadMem(4 bytes @ 0x20000000)
T2FEC 000:965.059   CPU_WriteMem(4 bytes @ 0x20000000)
T2FEC 000:965.757   CPU_ReadMem(4 bytes @ 0x20000000)
T2FEC 000:966.386   CPU_WriteMem(4 bytes @ 0x20000000)
T2FEC 000:967.132   CPU_ReadMem(2 bytes @ 0x20000000)
T2FEC 000:967.792 - 3.789ms returns 0x00000001
T2FEC 000:967.834 JLINK_Go()
T2FEC 000:967.858   CPU_WriteMem(2 bytes @ 0x20000000)
T2FEC 000:968.987   CPU_ReadMem(4 bytes @ 0xE0001000)
T2FEC 000:969.646   CPU_WriteMem(4 bytes @ 0xE0001000)
T2FEC 000:969.685   CPU_WriteMem(4 bytes @ 0xE0002008)
T2FEC 000:969.702   CPU_WriteMem(4 bytes @ 0xE000200C)
T2FEC 000:969.719   CPU_WriteMem(4 bytes @ 0xE0002010)
T2FEC 000:969.737   CPU_WriteMem(4 bytes @ 0xE0002014)
T2FEC 000:970.909   CPU_WriteMem(4 bytes @ 0xE0001004)
T2FEC 000:973.890 - 6.152ms
T2FEC 000:974.011 JLINK_IsHalted()
T2FEC 000:977.039   CPU_ReadMem(2 bytes @ 0x20000000)
T2FEC 000:978.079 - 4.157ms returns TRUE
T2FEC 000:978.247 JLINK_ReadReg(R15 (PC))
T2FEC 000:978.309 - 0.075ms returns 0x20000000
T2FEC 000:978.443 JLINK_ClrBPEx(BPHandle = 0x00000001)
T2FEC 000:978.463 - 0.025ms returns 0x00
T2FEC 000:978.479 JLINK_ReadReg(R0)
T2FEC 000:978.491 - 0.017ms returns 0x00000000
T2FEC 000:979.094 JLINK_HasError()
T2FEC 000:979.132 JLINK_WriteReg(R0, 0x00000000)
T2FEC 000:979.153 - 0.026ms returns 0
T2FEC 000:979.170 JLINK_WriteReg(R1, 0x00B71B00)
T2FEC 000:979.182 - 0.018ms returns 0
T2FEC 000:979.197 JLINK_WriteReg(R2, 0x00000001)
T2FEC 000:979.209 - 0.017ms returns 0
T2FEC 000:979.223 JLINK_WriteReg(R3, 0x00000000)
T2FEC 000:979.235 - 0.017ms returns 0
T2FEC 000:979.252 JLINK_WriteReg(R4, 0x00000000)
T2FEC 000:979.264 - 0.018ms returns 0
T2FEC 000:979.280 JLINK_WriteReg(R5, 0x00000000)
T2FEC 000:979.293 - 0.019ms returns 0
T2FEC 000:979.308 JLINK_WriteReg(R6, 0x00000000)
T2FEC 000:979.321 - 0.018ms returns 0
T2FEC 000:979.338 JLINK_WriteReg(R7, 0x00000000)
T2FEC 000:979.350 - 0.018ms returns 0
T2FEC 000:979.364 JLINK_WriteReg(R8, 0x00000000)
T2FEC 000:979.375 - 0.015ms returns 0
T2FEC 000:979.389 JLINK_WriteReg(R9, 0x20000388)
T2FEC 000:979.402 - 0.018ms returns 0
T2FEC 000:979.417 JLINK_WriteReg(R10, 0x00000000)
T2FEC 000:979.429 - 0.017ms returns 0
T2FEC 000:979.443 JLINK_WriteReg(R11, 0x00000000)
T2FEC 000:979.455 - 0.017ms returns 0
T2FEC 000:979.468 JLINK_WriteReg(R12, 0x00000000)
T2FEC 000:979.480 - 0.017ms returns 0
T2FEC 000:979.495 JLINK_WriteReg(R13 (SP), 0x20001000)
T2FEC 000:979.508 - 0.018ms returns 0
T2FEC 000:979.522 JLINK_WriteReg(R14, 0x20000001)
T2FEC 000:979.534 - 0.019ms returns 0
T2FEC 000:979.556 JLINK_WriteReg(R15 (PC), 0x2000007E)
T2FEC 000:979.576 - 0.029ms returns 0
T2FEC 000:979.598 JLINK_WriteReg(XPSR, 0x01000000)
T2FEC 000:979.615 - 0.022ms returns 0
T2FEC 000:979.631 JLINK_WriteReg(MSP, 0x20001000)
T2FEC 000:979.647 - 0.021ms returns 0
T2FEC 000:979.662 JLINK_WriteReg(PSP, 0x20001000)
T2FEC 000:979.673 - 0.017ms returns 0
T2FEC 000:979.687 JLINK_WriteReg(CFBP, 0x00000000)
T2FEC 000:979.698 - 0.015ms returns 0
T2FEC 000:979.711 JLINK_SetBPEx(Addr = 0x20000000, Type = 0xFFFFFFF2)
T2FEC 000:979.725 - 0.019ms returns 0x00000002
T2FEC 000:979.740 JLINK_Go()
T2FEC 000:979.765   CPU_ReadMem(4 bytes @ 0xE0001000)
T2FEC 000:980.747   CPU_WriteMem(4 bytes @ 0xE0001000)
T2FEC 000:983.817 - 4.097ms
T2FEC 000:983.853 JLINK_IsHalted()
T2FEC 000:984.422 - 0.585ms returns FALSE
T2FEC 000:984.455 JLINK_HasError()
T2FEC 001:014.838 JLINK_IsHalted()
T2FEC 001:017.387   CPU_ReadMem(2 bytes @ 0x20000000)
T2FEC 001:018.308 - 3.491ms returns TRUE
T2FEC 001:018.347 JLINK_ReadReg(R15 (PC))
T2FEC 001:018.367 - 0.026ms returns 0x20000000
T2FEC 001:018.383 JLINK_ClrBPEx(BPHandle = 0x00000002)
T2FEC 001:018.398 - 0.020ms returns 0x00
T2FEC 001:018.413 JLINK_ReadReg(R0)
T2FEC 001:018.425 - 0.018ms returns 0x00000000
T2FEC 001:071.214 JLINK_HasError()
T2FEC 001:071.250 JLINK_WriteReg(R0, 0x00000001)
T2FEC 001:071.271 - 0.026ms returns 0
T2FEC 001:071.290 JLINK_WriteReg(R1, 0x00B71B00)
T2FEC 001:071.308 - 0.024ms returns 0
T2FEC 001:071.329 JLINK_WriteReg(R2, 0x00000001)
T2FEC 001:071.341 - 0.016ms returns 0
T2FEC 001:071.355 JLINK_WriteReg(R3, 0x00000000)
T2FEC 001:071.369 - 0.020ms returns 0
T2FEC 001:071.385 JLINK_WriteReg(R4, 0x00000000)
T2FEC 001:071.397 - 0.017ms returns 0
T2FEC 001:071.411 JLINK_WriteReg(R5, 0x00000000)
T2FEC 001:071.422 - 0.015ms returns 0
T2FEC 001:071.436 JLINK_WriteReg(R6, 0x00000000)
T2FEC 001:071.448 - 0.017ms returns 0
T2FEC 001:071.463 JLINK_WriteReg(R7, 0x00000000)
T2FEC 001:071.475 - 0.017ms returns 0
T2FEC 001:071.488 JLINK_WriteReg(R8, 0x00000000)
T2FEC 001:071.499 - 0.017ms returns 0
T2FEC 001:071.513 JLINK_WriteReg(R9, 0x20000388)
T2FEC 001:071.524 - 0.016ms returns 0
T2FEC 001:071.539 JLINK_WriteReg(R10, 0x00000000)
T2FEC 001:071.549 - 0.015ms returns 0
T2FEC 001:071.571 JLINK_WriteReg(R11, 0x00000000)
T2FEC 001:071.588 - 0.020ms returns 0
T2FEC 001:071.600 JLINK_WriteReg(R12, 0x00000000)
T2FEC 001:071.612 - 0.017ms returns 0
T2FEC 001:071.627 JLINK_WriteReg(R13 (SP), 0x20001000)
T2FEC 001:071.641 - 0.018ms returns 0
T2FEC 001:071.655 JLINK_WriteReg(R14, 0x20000001)
T2FEC 001:071.667 - 0.017ms returns 0
T2FEC 001:071.681 JLINK_WriteReg(R15 (PC), 0x20000078)
T2FEC 001:071.694 - 0.017ms returns 0
T2FEC 001:071.709 JLINK_WriteReg(XPSR, 0x01000000)
T2FEC 001:071.720 - 0.016ms returns 0
T2FEC 001:071.734 JLINK_WriteReg(MSP, 0x20001000)
T2FEC 001:071.746 - 0.017ms returns 0
T2FEC 001:071.761 JLINK_WriteReg(PSP, 0x20001000)
T2FEC 001:071.772 - 0.017ms returns 0
T2FEC 001:071.786 JLINK_WriteReg(CFBP, 0x00000000)
T2FEC 001:071.798 - 0.017ms returns 0
T2FEC 001:071.813 JLINK_SetBPEx(Addr = 0x20000000, Type = 0xFFFFFFF2)
T2FEC 001:071.827 - 0.020ms returns 0x00000003
T2FEC 001:071.841 JLINK_Go()
T2FEC 001:071.869   CPU_ReadMem(4 bytes @ 0xE0001000)
T2FEC 001:072.580   CPU_WriteMem(4 bytes @ 0xE0001000)
T2FEC 001:076.150 - 4.332ms
T2FEC 001:076.192 JLINK_IsHalted()
T2FEC 001:078.812   CPU_ReadMem(2 bytes @ 0x20000000)
T2FEC 001:079.711 - 3.533ms returns TRUE
T2FEC 001:079.742 JLINK_ReadReg(R15 (PC))
T2FEC 001:079.761 - 0.025ms returns 0x20000000
T2FEC 001:079.779 JLINK_ClrBPEx(BPHandle = 0x00000003)
T2FEC 001:079.794 - 0.021ms returns 0x00
T2FEC 001:079.810 JLINK_ReadReg(R0)
T2FEC 001:079.824 - 0.020ms returns 0x00000000
T2FEC 001:091.876 JLINK_WriteMem(0x20000000, 0x38C Bytes, ...)
T2FEC 001:091.897   Data:  00 BE 0A E0 0D 78 2D 06 68 40 08 24 40 00 00 D3 ...
T2FEC 001:091.929   CPU_WriteMem(908 bytes @ 0x20000000)
T2FEC 001:096.099 - 4.250ms returns 0x38C
T2FEC 001:096.201 JLINK_HasError()
T2FEC 001:096.220 JLINK_WriteReg(R0, 0x00000000)
T2FEC 001:096.243 - 0.029ms returns 0
T2FEC 001:096.260 JLINK_WriteReg(R1, 0x00B71B00)
T2FEC 001:096.273 - 0.018ms returns 0
T2FEC 001:096.290 JLINK_WriteReg(R2, 0x00000002)
T2FEC 001:096.302 - 0.017ms returns 0
T2FEC 001:096.318 JLINK_WriteReg(R3, 0x00000000)
T2FEC 001:096.330 - 0.017ms returns 0
T2FEC 001:096.345 JLINK_WriteReg(R4, 0x00000000)
T2FEC 001:096.357 - 0.017ms returns 0
T2FEC 001:096.372 JLINK_WriteReg(R5, 0x00000000)
T2FEC 001:096.384 - 0.018ms returns 0
T2FEC 001:096.400 JLINK_WriteReg(R6, 0x00000000)
T2FEC 001:096.412 - 0.018ms returns 0
T2FEC 001:096.429 JLINK_WriteReg(R7, 0x00000000)
T2FEC 001:096.441 - 0.018ms returns 0
T2FEC 001:096.456 JLINK_WriteReg(R8, 0x00000000)
T2FEC 001:096.469 - 0.018ms returns 0
T2FEC 001:096.485 JLINK_WriteReg(R9, 0x20000388)
T2FEC 001:096.497 - 0.018ms returns 0
T2FEC 001:096.513 JLINK_WriteReg(R10, 0x00000000)
T2FEC 001:096.526 - 0.018ms returns 0
T2FEC 001:096.542 JLINK_WriteReg(R11, 0x00000000)
T2FEC 001:096.555 - 0.018ms returns 0
T2FEC 001:096.571 JLINK_WriteReg(R12, 0x00000000)
T2FEC 001:096.584 - 0.018ms returns 0
T2FEC 001:096.599 JLINK_WriteReg(R13 (SP), 0x20001000)
T2FEC 001:096.612 - 0.019ms returns 0
T2FEC 001:096.629 JLINK_WriteReg(R14, 0x20000001)
T2FEC 001:096.641 - 0.018ms returns 0
T2FEC 001:096.658 JLINK_WriteReg(R15 (PC), 0x20000038)
T2FEC 001:096.671 - 0.017ms returns 0
T2FEC 001:096.686 JLINK_WriteReg(XPSR, 0x01000000)
T2FEC 001:096.699 - 0.021ms returns 0
T2FEC 001:096.718 JLINK_WriteReg(MSP, 0x20001000)
T2FEC 001:096.731 - 0.018ms returns 0
T2FEC 001:096.747 JLINK_WriteReg(PSP, 0x20001000)
T2FEC 001:096.759 - 0.018ms returns 0
T2FEC 001:096.775 JLINK_WriteReg(CFBP, 0x00000000)
T2FEC 001:096.787 - 0.017ms returns 0
T2FEC 001:096.803 JLINK_SetBPEx(Addr = 0x20000000, Type = 0xFFFFFFF2)
T2FEC 001:096.831   CPU_ReadMem(4 bytes @ 0x20000000)
T2FEC 001:097.790   CPU_WriteMem(4 bytes @ 0x20000000)
T2FEC 001:098.576   CPU_ReadMem(4 bytes @ 0x20000000)
T2FEC 001:099.113   CPU_WriteMem(4 bytes @ 0x20000000)
T2FEC 001:099.832   CPU_ReadMem(2 bytes @ 0x20000000)
T2FEC 001:100.426 - 3.639ms returns 0x00000004
T2FEC 001:100.459 JLINK_Go()
T2FEC 001:100.481   CPU_WriteMem(2 bytes @ 0x20000000)
T2FEC 001:101.163   CPU_ReadMem(4 bytes @ 0xE0001000)
T2FEC 001:101.780   CPU_WriteMem(4 bytes @ 0xE0001000)
T2FEC 001:104.857 - 4.425ms
T2FEC 001:104.903 JLINK_IsHalted()
T2FEC 001:107.526   CPU_ReadMem(2 bytes @ 0x20000000)
T2FEC 001:108.442 - 3.560ms returns TRUE
T2FEC 001:108.487 JLINK_ReadReg(R15 (PC))
T2FEC 001:108.504 - 0.023ms returns 0x20000000
T2FEC 001:108.553 JLINK_ClrBPEx(BPHandle = 0x00000004)
T2FEC 001:108.573 - 0.026ms returns 0x00
T2FEC 001:108.589 JLINK_ReadReg(R0)
T2FEC 001:108.602 - 0.017ms returns 0x00000000
T2FEC 001:109.110 JLINK_WriteMem(0x2000038C, 0x74 Bytes, ...)
T2FEC 001:109.133   Data:  48 06 00 20 D9 00 00 00 E1 00 00 00 E3 00 00 00 ...
T2FEC 001:109.169   CPU_WriteMem(116 bytes @ 0x2000038C)
T2FEC 001:110.762 - 1.684ms returns 0x74
T2FEC 001:110.812 JLINK_WriteMem(0x20000400, 0x18C Bytes, ...)
T2FEC 001:110.826   Data:  00 00 00 00 EB 00 00 00 09 5E 00 00 EB 00 00 00 ...
T2FEC 001:110.862   CPU_WriteMem(396 bytes @ 0x20000400)
T2FEC 001:113.498 - 2.706ms returns 0x18C
T2FEC 001:113.537 JLINK_HasError()
T2FEC 001:113.555 JLINK_WriteReg(R0, 0x00000000)
T2FEC 001:113.575 - 0.024ms returns 0
T2FEC 001:113.590 JLINK_WriteReg(R1, 0x00000200)
T2FEC 001:113.603 - 0.018ms returns 0
T2FEC 001:113.619 JLINK_WriteReg(R2, 0x2000038C)
T2FEC 001:113.631 - 0.017ms returns 0
T2FEC 001:113.646 JLINK_WriteReg(R3, 0x00000000)
T2FEC 001:113.658 - 0.017ms returns 0
T2FEC 001:113.673 JLINK_WriteReg(R4, 0x00000000)
T2FEC 001:113.685 - 0.017ms returns 0
T2FEC 001:113.700 JLINK_WriteReg(R5, 0x00000000)
T2FEC 001:113.713 - 0.018ms returns 0
T2FEC 001:113.730 JLINK_WriteReg(R6, 0x00000000)
T2FEC 001:113.746 - 0.021ms returns 0
T2FEC 001:113.765 JLINK_WriteReg(R7, 0x00000000)
T2FEC 001:113.778 - 0.018ms returns 0
T2FEC 001:113.793 JLINK_WriteReg(R8, 0x00000000)
T2FEC 001:113.805 - 0.017ms returns 0
T2FEC 001:113.819 JLINK_WriteReg(R9, 0x20000388)
T2FEC 001:113.832 - 0.018ms returns 0
T2FEC 001:113.848 JLINK_WriteReg(R10, 0x00000000)
T2FEC 001:113.860 - 0.018ms returns 0
T2FEC 001:113.875 JLINK_WriteReg(R11, 0x00000000)
T2FEC 001:113.888 - 0.018ms returns 0
T2FEC 001:113.903 JLINK_WriteReg(R12, 0x00000000)
T2FEC 001:113.915 - 0.018ms returns 0
T2FEC 001:113.930 JLINK_WriteReg(R13 (SP), 0x20001000)
T2FEC 001:113.943 - 0.019ms returns 0
T2FEC 001:113.959 JLINK_WriteReg(R14, 0x20000001)
T2FEC 001:113.971 - 0.018ms returns 0
T2FEC 001:113.987 JLINK_WriteReg(R15 (PC), 0x20000238)
T2FEC 001:114.001 - 0.019ms returns 0
T2FEC 001:114.017 JLINK_WriteReg(XPSR, 0x01000000)
T2FEC 001:114.029 - 0.017ms returns 0
T2FEC 001:114.046 JLINK_WriteReg(MSP, 0x20001000)
T2FEC 001:114.058 - 0.018ms returns 0
T2FEC 001:114.074 JLINK_WriteReg(PSP, 0x20001000)
T2FEC 001:114.087 - 0.018ms returns 0
T2FEC 001:114.102 JLINK_WriteReg(CFBP, 0x00000000)
T2FEC 001:114.115 - 0.018ms returns 0
T2FEC 001:114.131 JLINK_SetBPEx(Addr = 0x20000000, Type = 0xFFFFFFF2)
T2FEC 001:114.146 - 0.021ms returns 0x00000005
T2FEC 001:114.162 JLINK_Go()
T2FEC 001:114.192   CPU_ReadMem(4 bytes @ 0xE0001000)
T2FEC 001:115.138   CPU_WriteMem(4 bytes @ 0xE0001000)
T2FEC 001:118.799 - 4.668ms
T2FEC 001:118.846 JLINK_IsHalted()
T2FEC 001:119.444 - 0.616ms returns FALSE
T2FEC 001:119.485 JLINK_HasError()
T2FEC 001:128.426 JLINK_IsHalted()
T2FEC 001:131.479   CPU_ReadMem(2 bytes @ 0x20000000)
T2FEC 001:132.434 - 4.031ms returns TRUE
T2FEC 001:132.473 JLINK_ReadReg(R15 (PC))
T2FEC 001:132.494 - 0.026ms returns 0x20000000
T2FEC 001:132.510 JLINK_ClrBPEx(BPHandle = 0x00000005)
T2FEC 001:132.522 - 0.018ms returns 0x00
T2FEC 001:132.538 JLINK_ReadReg(R0)
T2FEC 001:132.550 - 0.017ms returns 0x00000000
T2FEC 001:133.441 JLINK_WriteMem(0x2000038C, 0x74 Bytes, ...)
T2FEC 001:133.469   Data:  49 22 52 01 89 18 88 B2 04 21 04 F0 D3 FC D6 49 ...
T2FEC 001:133.501   CPU_WriteMem(116 bytes @ 0x2000038C)
T2FEC 001:134.612 - 1.215ms returns 0x74
T2FEC 001:134.680 JLINK_WriteMem(0x20000400, 0x18C Bytes, ...)
T2FEC 001:134.693   Data:  70 B5 04 46 0D 46 64 07 64 0F 2D 07 2D 0F 22 01 ...
T2FEC 001:134.719   CPU_WriteMem(396 bytes @ 0x20000400)
T2FEC 001:136.757 - 2.101ms returns 0x18C
T2FEC 001:136.805 JLINK_HasError()
T2FEC 001:136.857 JLINK_WriteReg(R0, 0x00000200)
T2FEC 001:136.880 - 0.029ms returns 0
T2FEC 001:136.897 JLINK_WriteReg(R1, 0x00000200)
T2FEC 001:136.910 - 0.019ms returns 0
T2FEC 001:136.925 JLINK_WriteReg(R2, 0x2000038C)
T2FEC 001:136.938 - 0.018ms returns 0
T2FEC 001:136.953 JLINK_WriteReg(R3, 0x00000000)
T2FEC 001:136.966 - 0.018ms returns 0
T2FEC 001:136.980 JLINK_WriteReg(R4, 0x00000000)
T2FEC 001:136.993 - 0.017ms returns 0
T2FEC 001:137.007 JLINK_WriteReg(R5, 0x00000000)
T2FEC 001:137.019 - 0.017ms returns 0
T2FEC 001:137.034 JLINK_WriteReg(R6, 0x00000000)
T2FEC 001:137.047 - 0.018ms returns 0
T2FEC 001:137.061 JLINK_WriteReg(R7, 0x00000000)
T2FEC 001:137.073 - 0.017ms returns 0
T2FEC 001:137.088 JLINK_WriteReg(R8, 0x00000000)
T2FEC 001:137.106 - 0.025ms returns 0
T2FEC 001:137.126 JLINK_WriteReg(R9, 0x20000388)
T2FEC 001:137.140 - 0.021ms returns 0
T2FEC 001:137.163 JLINK_WriteReg(R10, 0x00000000)
T2FEC 001:137.179 - 0.021ms returns 0
T2FEC 001:137.194 JLINK_WriteReg(R11, 0x00000000)
T2FEC 001:137.207 - 0.017ms returns 0
T2FEC 001:137.225 JLINK_WriteReg(R12, 0x00000000)
T2FEC 001:137.240 - 0.021ms returns 0
T2FEC 001:137.255 JLINK_WriteReg(R13 (SP), 0x20001000)
T2FEC 001:137.269 - 0.018ms returns 0
T2FEC 001:137.283 JLINK_WriteReg(R14, 0x20000001)
T2FEC 001:137.294 - 0.017ms returns 0
T2FEC 001:137.308 JLINK_WriteReg(R15 (PC), 0x20000238)
T2FEC 001:137.321 - 0.019ms returns 0
T2FEC 001:137.336 JLINK_WriteReg(XPSR, 0x01000000)
T2FEC 001:137.348 - 0.017ms returns 0
T2FEC 001:137.362 JLINK_WriteReg(MSP, 0x20001000)
T2FEC 001:137.374 - 0.017ms returns 0
T2FEC 001:137.388 JLINK_WriteReg(PSP, 0x20001000)
T2FEC 001:137.399 - 0.017ms returns 0
T2FEC 001:137.413 JLINK_WriteReg(CFBP, 0x00000000)
T2FEC 001:137.425 - 0.016ms returns 0
T2FEC 001:137.439 JLINK_SetBPEx(Addr = 0x20000000, Type = 0xFFFFFFF2)
T2FEC 001:137.453 - 0.019ms returns 0x00000006
T2FEC 001:137.467 JLINK_Go()
T2FEC 001:137.490   CPU_ReadMem(4 bytes @ 0xE0001000)
T2FEC 001:138.125   CPU_WriteMem(4 bytes @ 0xE0001000)
T2FEC 001:141.817 - 4.373ms
T2FEC 001:141.859 JLINK_IsHalted()
T2FEC 001:142.883 - 1.047ms returns FALSE
T2FEC 001:142.924 JLINK_HasError()
T2FEC 001:144.320 JLINK_IsHalted()
T2FEC 001:145.084 - 0.783ms returns FALSE
T2FEC 001:145.120 JLINK_HasError()
T2FEC 001:146.293 JLINK_IsHalted()
T2FEC 001:147.364 - 1.093ms returns FALSE
T2FEC 001:147.404 JLINK_HasError()
T2FEC 001:149.258 JLINK_IsHalted()
T2FEC 001:152.161   CPU_ReadMem(2 bytes @ 0x20000000)
T2FEC 001:153.145 - 3.906ms returns TRUE
T2FEC 001:153.183 JLINK_ReadReg(R15 (PC))
T2FEC 001:153.205 - 0.029ms returns 0x20000000
T2FEC 001:153.222 JLINK_ClrBPEx(BPHandle = 0x00000006)
T2FEC 001:153.234 - 0.017ms returns 0x00
T2FEC 001:153.249 JLINK_ReadReg(R0)
T2FEC 001:153.261 - 0.017ms returns 0x00000000
T2FEC 001:154.189 JLINK_WriteMem(0x2000038C, 0x74 Bytes, ...)
T2FEC 001:154.219   Data:  04 F0 BC FB 58 49 09 78 09 02 58 4A 52 1D 89 18 ...
T2FEC 001:154.257   CPU_WriteMem(116 bytes @ 0x2000038C)
T2FEC 001:155.796 - 1.629ms returns 0x74
T2FEC 001:155.837 JLINK_WriteMem(0x20000400, 0x18C Bytes, ...)
T2FEC 001:155.852   Data:  0A 0E 3C 49 09 78 09 02 3B 4B DB 1D C9 18 88 B2 ...
T2FEC 001:155.888   CPU_WriteMem(396 bytes @ 0x20000400)
T2FEC 001:157.899 - 2.086ms returns 0x18C
T2FEC 001:157.943 JLINK_HasError()
T2FEC 001:157.963 JLINK_WriteReg(R0, 0x00000400)
T2FEC 001:157.984 - 0.031ms returns 0
T2FEC 001:158.013 JLINK_WriteReg(R1, 0x00000200)
T2FEC 001:158.028 - 0.021ms returns 0
T2FEC 001:158.043 JLINK_WriteReg(R2, 0x2000038C)
T2FEC 001:158.057 - 0.019ms returns 0
T2FEC 001:158.072 JLINK_WriteReg(R3, 0x00000000)
T2FEC 001:158.085 - 0.018ms returns 0
T2FEC 001:158.100 JLINK_WriteReg(R4, 0x00000000)
T2FEC 001:158.113 - 0.018ms returns 0
T2FEC 001:158.128 JLINK_WriteReg(R5, 0x00000000)
T2FEC 001:158.142 - 0.019ms returns 0
T2FEC 001:158.159 JLINK_WriteReg(R6, 0x00000000)
T2FEC 001:158.172 - 0.018ms returns 0
T2FEC 001:158.188 JLINK_WriteReg(R7, 0x00000000)
T2FEC 001:158.214 - 0.031ms returns 0
T2FEC 001:158.229 JLINK_WriteReg(R8, 0x00000000)
T2FEC 001:158.242 - 0.018ms returns 0
T2FEC 001:158.258 JLINK_WriteReg(R9, 0x20000388)
T2FEC 001:158.270 - 0.018ms returns 0
T2FEC 001:158.285 JLINK_WriteReg(R10, 0x00000000)
T2FEC 001:158.298 - 0.018ms returns 0
T2FEC 001:158.314 JLINK_WriteReg(R11, 0x00000000)
T2FEC 001:158.326 - 0.018ms returns 0
T2FEC 001:158.342 JLINK_WriteReg(R12, 0x00000000)
T2FEC 001:158.355 - 0.018ms returns 0
T2FEC 001:158.370 JLINK_WriteReg(R13 (SP), 0x20001000)
T2FEC 001:158.384 - 0.019ms returns 0
T2FEC 001:158.399 JLINK_WriteReg(R14, 0x20000001)
T2FEC 001:158.412 - 0.019ms returns 0
T2FEC 001:158.427 JLINK_WriteReg(R15 (PC), 0x20000238)
T2FEC 001:158.441 - 0.019ms returns 0
T2FEC 001:158.456 JLINK_WriteReg(XPSR, 0x01000000)
T2FEC 001:158.469 - 0.018ms returns 0
T2FEC 001:158.484 JLINK_WriteReg(MSP, 0x20001000)
T2FEC 001:158.497 - 0.019ms returns 0
T2FEC 001:158.513 JLINK_WriteReg(PSP, 0x20001000)
T2FEC 001:158.526 - 0.018ms returns 0
T2FEC 001:158.540 JLINK_WriteReg(CFBP, 0x00000000)
T2FEC 001:158.554 - 0.019ms returns 0
T2FEC 001:158.570 JLINK_SetBPEx(Addr = 0x20000000, Type = 0xFFFFFFF2)
T2FEC 001:158.586 - 0.021ms returns 0x00000007
T2FEC 001:158.602 JLINK_Go()
T2FEC 001:158.628   CPU_ReadMem(4 bytes @ 0xE0001000)
T2FEC 001:159.214   CPU_WriteMem(4 bytes @ 0xE0001000)
T2FEC 001:162.859 - 4.279ms
T2FEC 001:162.904 JLINK_IsHalted()
T2FEC 001:163.437 - 0.551ms returns FALSE
T2FEC 001:163.477 JLINK_HasError()
T2FEC 001:165.133 JLINK_IsHalted()
T2FEC 001:165.743 - 0.636ms returns FALSE
T2FEC 001:165.787 JLINK_HasError()
T2FEC 001:215.721 JLINK_IsHalted()
T2FEC 001:218.679   CPU_ReadMem(2 bytes @ 0x20000000)
T2FEC 001:219.581 - 3.874ms returns TRUE
T2FEC 001:219.611 JLINK_ReadReg(R15 (PC))
T2FEC 001:219.631 - 0.026ms returns 0x20000000
T2FEC 001:219.648 JLINK_ClrBPEx(BPHandle = 0x00000007)
T2FEC 001:219.666 - 0.024ms returns 0x00
T2FEC 001:219.683 JLINK_ReadReg(R0)
T2FEC 001:219.697 - 0.019ms returns 0x00000000
T2FEC 001:220.754 JLINK_WriteMem(0x2000038C, 0x74 Bytes, ...)
T2FEC 001:220.775   Data:  04 F0 97 FA DB 49 09 78 09 02 DB 4A 52 1C 89 18 ...
T2FEC 001:220.808   CPU_WriteMem(116 bytes @ 0x2000038C)
T2FEC 001:222.242 - 1.505ms returns 0x74
T2FEC 001:222.275 JLINK_WriteMem(0x20000400, 0x18C Bytes, ...)
T2FEC 001:222.290   Data:  88 B2 22 46 02 21 04 F0 A4 FA 10 BD 10 B5 04 46 ...
T2FEC 001:222.322   CPU_WriteMem(396 bytes @ 0x20000400)
T2FEC 001:224.374 - 2.118ms returns 0x18C
T2FEC 001:224.414 JLINK_HasError()
T2FEC 001:224.434 JLINK_WriteReg(R0, 0x00000600)
T2FEC 001:224.457 - 0.029ms returns 0
T2FEC 001:224.475 JLINK_WriteReg(R1, 0x00000200)
T2FEC 001:224.489 - 0.020ms returns 0
T2FEC 001:224.504 JLINK_WriteReg(R2, 0x2000038C)
T2FEC 001:224.518 - 0.020ms returns 0
T2FEC 001:224.535 JLINK_WriteReg(R3, 0x00000000)
T2FEC 001:224.549 - 0.019ms returns 0
T2FEC 001:224.564 JLINK_WriteReg(R4, 0x00000000)
T2FEC 001:224.577 - 0.019ms returns 0
T2FEC 001:224.594 JLINK_WriteReg(R5, 0x00000000)
T2FEC 001:224.606 - 0.019ms returns 0
T2FEC 001:224.626 JLINK_WriteReg(R6, 0x00000000)
T2FEC 001:224.639 - 0.019ms returns 0
T2FEC 001:224.654 JLINK_WriteReg(R7, 0x00000000)
T2FEC 001:224.666 - 0.017ms returns 0
T2FEC 001:224.681 JLINK_WriteReg(R8, 0x00000000)
T2FEC 001:224.693 - 0.017ms returns 0
T2FEC 001:224.708 JLINK_WriteReg(R9, 0x20000388)
T2FEC 001:224.720 - 0.017ms returns 0
T2FEC 001:224.735 JLINK_WriteReg(R10, 0x00000000)
T2FEC 001:224.747 - 0.017ms returns 0
T2FEC 001:224.762 JLINK_WriteReg(R11, 0x00000000)
T2FEC 001:224.774 - 0.018ms returns 0
T2FEC 001:224.789 JLINK_WriteReg(R12, 0x00000000)
T2FEC 001:224.802 - 0.018ms returns 0
T2FEC 001:224.817 JLINK_WriteReg(R13 (SP), 0x20001000)
T2FEC 001:224.831 - 0.023ms returns 0
T2FEC 001:224.851 JLINK_WriteReg(R14, 0x20000001)
T2FEC 001:224.863 - 0.018ms returns 0
T2FEC 001:224.879 JLINK_WriteReg(R15 (PC), 0x20000238)
T2FEC 001:224.893 - 0.019ms returns 0
T2FEC 001:224.907 JLINK_WriteReg(XPSR, 0x01000000)
T2FEC 001:224.928 - 0.031ms returns 0
T2FEC 001:224.948 JLINK_WriteReg(MSP, 0x20001000)
T2FEC 001:224.962 - 0.019ms returns 0
T2FEC 001:224.977 JLINK_WriteReg(PSP, 0x20001000)
T2FEC 001:224.990 - 0.019ms returns 0
T2FEC 001:225.005 JLINK_WriteReg(CFBP, 0x00000000)
T2FEC 001:225.018 - 0.018ms returns 0
T2FEC 001:225.033 JLINK_SetBPEx(Addr = 0x20000000, Type = 0xFFFFFFF2)
T2FEC 001:225.050 - 0.022ms returns 0x00000008
T2FEC 001:225.065 JLINK_Go()
T2FEC 001:225.092   CPU_ReadMem(4 bytes @ 0xE0001000)
T2FEC 001:225.710   CPU_WriteMem(4 bytes @ 0xE0001000)
T2FEC 001:228.793 - 3.744ms
T2FEC 001:228.826 JLINK_IsHalted()
T2FEC 001:229.445 - 0.631ms returns FALSE
T2FEC 001:229.475 JLINK_HasError()
T2FEC 001:244.989 JLINK_IsHalted()
T2FEC 001:247.726   CPU_ReadMem(2 bytes @ 0x20000000)
T2FEC 001:248.720 - 3.751ms returns TRUE
T2FEC 001:248.757 JLINK_ReadReg(R15 (PC))
T2FEC 001:248.777 - 0.025ms returns 0x20000000
T2FEC 001:248.792 JLINK_ClrBPEx(BPHandle = 0x00000008)
T2FEC 001:248.805 - 0.018ms returns 0x00
T2FEC 001:248.821 JLINK_ReadReg(R0)
T2FEC 001:248.832 - 0.017ms returns 0x00000000
T2FEC 001:249.769 JLINK_WriteMem(0x2000038C, 0x74 Bytes, ...)
T2FEC 001:249.795   Data:  02 2C 47 D0 03 2C 43 D1 12 E0 0A 2C 04 D0 0C 2C ...
T2FEC 001:249.828   CPU_WriteMem(116 bytes @ 0x2000038C)
T2FEC 001:250.879 - 1.131ms returns 0x74
T2FEC 001:250.919 JLINK_WriteMem(0x20000400, 0x18C Bytes, ...)
T2FEC 001:250.935   Data:  83 F9 19 E0 3E 49 09 78 09 02 3F 4A 2A 32 89 18 ...
T2FEC 001:250.969   CPU_WriteMem(396 bytes @ 0x20000400)
T2FEC 001:252.965 - 2.070ms returns 0x18C
T2FEC 001:253.007 JLINK_HasError()
T2FEC 001:253.025 JLINK_WriteReg(R0, 0x00000800)
T2FEC 001:253.045 - 0.026ms returns 0
T2FEC 001:253.061 JLINK_WriteReg(R1, 0x00000200)
T2FEC 001:253.074 - 0.019ms returns 0
T2FEC 001:253.089 JLINK_WriteReg(R2, 0x2000038C)
T2FEC 001:253.101 - 0.017ms returns 0
T2FEC 001:253.117 JLINK_WriteReg(R3, 0x00000000)
T2FEC 001:253.129 - 0.017ms returns 0
T2FEC 001:253.145 JLINK_WriteReg(R4, 0x00000000)
T2FEC 001:253.157 - 0.017ms returns 0
T2FEC 001:253.172 JLINK_WriteReg(R5, 0x00000000)
T2FEC 001:253.184 - 0.018ms returns 0
T2FEC 001:253.198 JLINK_WriteReg(R6, 0x00000000)
T2FEC 001:253.211 - 0.018ms returns 0
T2FEC 001:253.226 JLINK_WriteReg(R7, 0x00000000)
T2FEC 001:253.238 - 0.017ms returns 0
T2FEC 001:253.254 JLINK_WriteReg(R8, 0x00000000)
T2FEC 001:253.266 - 0.017ms returns 0
T2FEC 001:253.282 JLINK_WriteReg(R9, 0x20000388)
T2FEC 001:253.294 - 0.017ms returns 0
T2FEC 001:253.309 JLINK_WriteReg(R10, 0x00000000)
T2FEC 001:253.321 - 0.018ms returns 0
T2FEC 001:253.336 JLINK_WriteReg(R11, 0x00000000)
T2FEC 001:253.349 - 0.018ms returns 0
T2FEC 001:253.363 JLINK_WriteReg(R12, 0x00000000)
T2FEC 001:253.376 - 0.018ms returns 0
T2FEC 001:253.392 JLINK_WriteReg(R13 (SP), 0x20001000)
T2FEC 001:253.405 - 0.020ms returns 0
T2FEC 001:253.420 JLINK_WriteReg(R14, 0x20000001)
T2FEC 001:253.432 - 0.017ms returns 0
T2FEC 001:253.448 JLINK_WriteReg(R15 (PC), 0x20000238)
T2FEC 001:253.460 - 0.017ms returns 0
T2FEC 001:253.476 JLINK_WriteReg(XPSR, 0x01000000)
T2FEC 001:253.488 - 0.017ms returns 0
T2FEC 001:253.502 JLINK_WriteReg(MSP, 0x20001000)
T2FEC 001:253.515 - 0.018ms returns 0
T2FEC 001:253.529 JLINK_WriteReg(PSP, 0x20001000)
T2FEC 001:253.542 - 0.018ms returns 0
T2FEC 001:253.556 JLINK_WriteReg(CFBP, 0x00000000)
T2FEC 001:253.568 - 0.018ms returns 0
T2FEC 001:253.584 JLINK_SetBPEx(Addr = 0x20000000, Type = 0xFFFFFFF2)
T2FEC 001:253.598 - 0.020ms returns 0x00000009
T2FEC 001:253.614 JLINK_Go()
T2FEC 001:253.638   CPU_ReadMem(4 bytes @ 0xE0001000)
T2FEC 001:254.371   CPU_WriteMem(4 bytes @ 0xE0001000)
T2FEC 001:257.589 - 3.994ms
T2FEC 001:257.627 JLINK_IsHalted()
T2FEC 001:258.694 - 1.082ms returns FALSE
T2FEC 001:258.725 JLINK_HasError()
T2FEC 001:259.858 JLINK_IsHalted()
T2FEC 001:260.954 - 1.122ms returns FALSE
T2FEC 001:261.000 JLINK_HasError()
T2FEC 001:262.842 JLINK_IsHalted()
T2FEC 001:263.716 - 0.898ms returns FALSE
T2FEC 001:263.794 JLINK_HasError()
T2FEC 001:265.815 JLINK_IsHalted()
T2FEC 001:268.476   CPU_ReadMem(2 bytes @ 0x20000000)
T2FEC 001:269.364 - 3.563ms returns TRUE
T2FEC 001:269.399 JLINK_ReadReg(R15 (PC))
T2FEC 001:269.420 - 0.026ms returns 0x20000000
T2FEC 001:269.475 JLINK_ClrBPEx(BPHandle = 0x00000009)
T2FEC 001:269.490 - 0.021ms returns 0x00
T2FEC 001:269.507 JLINK_ReadReg(R0)
T2FEC 001:269.520 - 0.019ms returns 0x00000000
T2FEC 001:270.537 JLINK_WriteMem(0x2000038C, 0x74 Bytes, ...)
T2FEC 001:270.563   Data:  05 D1 E5 48 80 78 20 21 08 43 E3 49 88 70 E2 48 ...
T2FEC 001:270.595   CPU_WriteMem(116 bytes @ 0x2000038C)
T2FEC 001:272.248 - 1.732ms returns 0x74
T2FEC 001:272.287 JLINK_WriteMem(0x20000400, 0x18C Bytes, ...)
T2FEC 001:272.301   Data:  09 02 CA 4A 52 1E 89 18 88 B2 02 21 04 F0 57 F8 ...
T2FEC 001:272.338   CPU_WriteMem(396 bytes @ 0x20000400)
T2FEC 001:274.804 - 2.548ms returns 0x18C
T2FEC 001:274.857 JLINK_HasError()
T2FEC 001:274.880 JLINK_WriteReg(R0, 0x00000A00)
T2FEC 001:274.905 - 0.031ms returns 0
T2FEC 001:274.921 JLINK_WriteReg(R1, 0x00000200)
T2FEC 001:274.934 - 0.017ms returns 0
T2FEC 001:274.948 JLINK_WriteReg(R2, 0x2000038C)
T2FEC 001:274.959 - 0.017ms returns 0
T2FEC 001:274.974 JLINK_WriteReg(R3, 0x00000000)
T2FEC 001:274.986 - 0.018ms returns 0
T2FEC 001:275.002 JLINK_WriteReg(R4, 0x00000000)
T2FEC 001:275.015 - 0.022ms returns 0
T2FEC 001:275.035 JLINK_WriteReg(R5, 0x00000000)
T2FEC 001:275.048 - 0.019ms returns 0
T2FEC 001:275.063 JLINK_WriteReg(R6, 0x00000000)
T2FEC 001:275.076 - 0.018ms returns 0
T2FEC 001:275.092 JLINK_WriteReg(R7, 0x00000000)
T2FEC 001:275.105 - 0.020ms returns 0
T2FEC 001:275.121 JLINK_WriteReg(R8, 0x00000000)
T2FEC 001:275.135 - 0.020ms returns 0
T2FEC 001:275.151 JLINK_WriteReg(R9, 0x20000388)
T2FEC 001:275.165 - 0.020ms returns 0
T2FEC 001:275.182 JLINK_WriteReg(R10, 0x00000000)
T2FEC 001:275.195 - 0.019ms returns 0
T2FEC 001:275.214 JLINK_WriteReg(R11, 0x00000000)
T2FEC 001:275.228 - 0.022ms returns 0
T2FEC 001:275.243 JLINK_WriteReg(R12, 0x00000000)
T2FEC 001:275.258 - 0.022ms returns 0
T2FEC 001:275.275 JLINK_WriteReg(R13 (SP), 0x20001000)
T2FEC 001:275.291 - 0.021ms returns 0
T2FEC 001:275.307 JLINK_WriteReg(R14, 0x20000001)
T2FEC 001:275.321 - 0.020ms returns 0
T2FEC 001:275.336 JLINK_WriteReg(R15 (PC), 0x20000238)
T2FEC 001:275.349 - 0.019ms returns 0
T2FEC 001:275.365 JLINK_WriteReg(XPSR, 0x01000000)
T2FEC 001:275.377 - 0.018ms returns 0
T2FEC 001:275.393 JLINK_WriteReg(MSP, 0x20001000)
T2FEC 001:275.405 - 0.017ms returns 0
T2FEC 001:275.420 JLINK_WriteReg(PSP, 0x20001000)
T2FEC 001:275.433 - 0.017ms returns 0
T2FEC 001:275.447 JLINK_WriteReg(CFBP, 0x00000000)
T2FEC 001:275.460 - 0.018ms returns 0
T2FEC 001:275.476 JLINK_SetBPEx(Addr = 0x20000000, Type = 0xFFFFFFF2)
T2FEC 001:275.492 - 0.021ms returns 0x0000000A
T2FEC 001:275.508 JLINK_Go()
T2FEC 001:275.560   CPU_ReadMem(4 bytes @ 0xE0001000)
T2FEC 001:276.091   CPU_WriteMem(4 bytes @ 0xE0001000)
T2FEC 001:279.244 - 3.757ms
T2FEC 001:279.282 JLINK_IsHalted()
T2FEC 001:279.834 - 0.569ms returns FALSE
T2FEC 001:279.867 JLINK_HasError()
T2FEC 001:281.196 JLINK_IsHalted()
T2FEC 001:282.145 - 0.971ms returns FALSE
T2FEC 001:282.183 JLINK_HasError()
T2FEC 001:322.360 JLINK_IsHalted()
T2FEC 001:325.064   CPU_ReadMem(2 bytes @ 0x20000000)
T2FEC 001:325.943 - 3.597ms returns TRUE
T2FEC 001:325.973 JLINK_ReadReg(R15 (PC))
T2FEC 001:325.992 - 0.025ms returns 0x20000000
T2FEC 001:326.008 JLINK_ClrBPEx(BPHandle = 0x0000000A)
T2FEC 001:326.023 - 0.020ms returns 0x00
T2FEC 001:326.038 JLINK_ReadReg(R0)
T2FEC 001:326.050 - 0.019ms returns 0x00000000
T2FEC 001:327.206 JLINK_WriteMem(0x2000038C, 0x74 Bytes, ...)
T2FEC 001:327.233   Data:  65 49 09 5D 40 18 64 49 C8 70 60 1C C4 B2 1F 2C ...
T2FEC 001:327.270   CPU_WriteMem(116 bytes @ 0x2000038C)
T2FEC 001:328.697 - 1.505ms returns 0x74
T2FEC 001:328.727 JLINK_WriteMem(0x20000400, 0x18C Bytes, ...)
T2FEC 001:328.742   Data:  90 B2 03 F0 5C FF 60 1C C4 B2 1F 2C F0 DB 46 49 ...
T2FEC 001:328.773   CPU_WriteMem(396 bytes @ 0x20000400)
T2FEC 001:330.789 - 2.076ms returns 0x18C
T2FEC 001:330.822 JLINK_HasError()
T2FEC 001:330.840 JLINK_WriteReg(R0, 0x00000C00)
T2FEC 001:330.860 - 0.026ms returns 0
T2FEC 001:330.877 JLINK_WriteReg(R1, 0x00000200)
T2FEC 001:330.890 - 0.019ms returns 0
T2FEC 001:330.906 JLINK_WriteReg(R2, 0x2000038C)
T2FEC 001:330.919 - 0.018ms returns 0
T2FEC 001:330.933 JLINK_WriteReg(R3, 0x00000000)
T2FEC 001:330.946 - 0.018ms returns 0
T2FEC 001:330.961 JLINK_WriteReg(R4, 0x00000000)
T2FEC 001:330.974 - 0.019ms returns 0
T2FEC 001:330.989 JLINK_WriteReg(R5, 0x00000000)
T2FEC 001:331.002 - 0.019ms returns 0
T2FEC 001:331.016 JLINK_WriteReg(R6, 0x00000000)
T2FEC 001:331.030 - 0.019ms returns 0
T2FEC 001:331.045 JLINK_WriteReg(R7, 0x00000000)
T2FEC 001:331.058 - 0.018ms returns 0
T2FEC 001:331.072 JLINK_WriteReg(R8, 0x00000000)
T2FEC 001:331.084 - 0.017ms returns 0
T2FEC 001:331.099 JLINK_WriteReg(R9, 0x20000388)
T2FEC 001:331.112 - 0.017ms returns 0
T2FEC 001:331.127 JLINK_WriteReg(R10, 0x00000000)
T2FEC 001:331.141 - 0.019ms returns 0
T2FEC 001:331.156 JLINK_WriteReg(R11, 0x00000000)
T2FEC 001:331.168 - 0.018ms returns 0
T2FEC 001:331.183 JLINK_WriteReg(R12, 0x00000000)
T2FEC 001:331.196 - 0.017ms returns 0
T2FEC 001:331.211 JLINK_WriteReg(R13 (SP), 0x20001000)
T2FEC 001:331.224 - 0.018ms returns 0
T2FEC 001:331.239 JLINK_WriteReg(R14, 0x20000001)
T2FEC 001:331.251 - 0.017ms returns 0
T2FEC 001:331.268 JLINK_WriteReg(R15 (PC), 0x20000238)
T2FEC 001:331.280 - 0.017ms returns 0
T2FEC 001:331.293 JLINK_WriteReg(XPSR, 0x01000000)
T2FEC 001:331.304 - 0.016ms returns 0
T2FEC 001:331.318 JLINK_WriteReg(MSP, 0x20001000)
T2FEC 001:331.329 - 0.016ms returns 0
T2FEC 001:331.343 JLINK_WriteReg(PSP, 0x20001000)
T2FEC 001:331.354 - 0.016ms returns 0
T2FEC 001:331.368 JLINK_WriteReg(CFBP, 0x00000000)
T2FEC 001:331.378 - 0.015ms returns 0
T2FEC 001:331.391 JLINK_SetBPEx(Addr = 0x20000000, Type = 0xFFFFFFF2)
T2FEC 001:331.406 - 0.019ms returns 0x0000000B
T2FEC 001:331.420 JLINK_Go()
T2FEC 001:331.442   CPU_ReadMem(4 bytes @ 0xE0001000)
T2FEC 001:332.159   CPU_WriteMem(4 bytes @ 0xE0001000)
T2FEC 001:335.304 - 3.902ms
T2FEC 001:335.337 JLINK_IsHalted()
T2FEC 001:335.922 - 0.600ms returns FALSE
T2FEC 001:335.952 JLINK_HasError()
T2FEC 001:337.250 JLINK_IsHalted()
T2FEC 001:338.169 - 0.939ms returns FALSE
T2FEC 001:338.209 JLINK_HasError()
T2FEC 001:387.835 JLINK_IsHalted()
T2FEC 001:390.578   CPU_ReadMem(2 bytes @ 0x20000000)
T2FEC 001:391.461 - 3.642ms returns TRUE
T2FEC 001:391.493 JLINK_ReadReg(R15 (PC))
T2FEC 001:391.513 - 0.026ms returns 0x20000000
T2FEC 001:391.530 JLINK_ClrBPEx(BPHandle = 0x0000000B)
T2FEC 001:391.543 - 0.018ms returns 0x00
T2FEC 001:391.559 JLINK_ReadReg(R0)
T2FEC 001:391.572 - 0.018ms returns 0x00000000
T2FEC 001:392.577 JLINK_WriteMem(0x2000038C, 0x74 Bytes, ...)
T2FEC 001:392.608   Data:  03 D0 00 20 FF F7 63 FC 02 E0 E0 79 FF F7 5F FC ...
T2FEC 001:392.647   CPU_WriteMem(116 bytes @ 0x2000038C)
T2FEC 001:393.705 - 1.154ms returns 0x74
T2FEC 001:393.749 JLINK_WriteMem(0x20000400, 0x18C Bytes, ...)
T2FEC 001:393.766   Data:  FF F7 EB FF 04 46 A0 00 28 43 C6 B2 C5 49 09 78 ...
T2FEC 001:393.802   CPU_WriteMem(396 bytes @ 0x20000400)
T2FEC 001:395.866 - 2.144ms returns 0x18C
T2FEC 001:395.914 JLINK_HasError()
T2FEC 001:395.934 JLINK_WriteReg(R0, 0x00000E00)
T2FEC 001:395.958 - 0.029ms returns 0
T2FEC 001:395.974 JLINK_WriteReg(R1, 0x00000200)
T2FEC 001:395.987 - 0.018ms returns 0
T2FEC 001:396.003 JLINK_WriteReg(R2, 0x2000038C)
T2FEC 001:396.017 - 0.019ms returns 0
T2FEC 001:396.033 JLINK_WriteReg(R3, 0x00000000)
T2FEC 001:396.045 - 0.018ms returns 0
T2FEC 001:396.061 JLINK_WriteReg(R4, 0x00000000)
T2FEC 001:396.074 - 0.018ms returns 0
T2FEC 001:396.089 JLINK_WriteReg(R5, 0x00000000)
T2FEC 001:396.101 - 0.018ms returns 0
T2FEC 001:396.116 JLINK_WriteReg(R6, 0x00000000)
T2FEC 001:396.128 - 0.017ms returns 0
T2FEC 001:396.143 JLINK_WriteReg(R7, 0x00000000)
T2FEC 001:396.156 - 0.018ms returns 0
T2FEC 001:396.170 JLINK_WriteReg(R8, 0x00000000)
T2FEC 001:396.191 - 0.031ms returns 0
T2FEC 001:396.211 JLINK_WriteReg(R9, 0x20000388)
T2FEC 001:396.223 - 0.018ms returns 0
T2FEC 001:396.240 JLINK_WriteReg(R10, 0x00000000)
T2FEC 001:396.313 - 0.081ms returns 0
T2FEC 001:396.377 JLINK_WriteReg(R11, 0x00000000)
T2FEC 001:396.391 - 0.020ms returns 0
T2FEC 001:396.407 JLINK_WriteReg(R12, 0x00000000)
T2FEC 001:396.421 - 0.019ms returns 0
T2FEC 001:396.436 JLINK_WriteReg(R13 (SP), 0x20001000)
T2FEC 001:396.450 - 0.020ms returns 0
T2FEC 001:396.466 JLINK_WriteReg(R14, 0x20000001)
T2FEC 001:396.479 - 0.018ms returns 0
T2FEC 001:396.494 JLINK_WriteReg(R15 (PC), 0x20000238)
T2FEC 001:396.508 - 0.019ms returns 0
T2FEC 001:396.523 JLINK_WriteReg(XPSR, 0x01000000)
T2FEC 001:396.536 - 0.018ms returns 0
T2FEC 001:396.552 JLINK_WriteReg(MSP, 0x20001000)
T2FEC 001:396.565 - 0.018ms returns 0
T2FEC 001:396.580 JLINK_WriteReg(PSP, 0x20001000)
T2FEC 001:396.593 - 0.018ms returns 0
T2FEC 001:396.608 JLINK_WriteReg(CFBP, 0x00000000)
T2FEC 001:396.621 - 0.018ms returns 0
T2FEC 001:396.636 JLINK_SetBPEx(Addr = 0x20000000, Type = 0xFFFFFFF2)
T2FEC 001:396.652 - 0.021ms returns 0x0000000C
T2FEC 001:396.668 JLINK_Go()
T2FEC 001:396.694   CPU_ReadMem(4 bytes @ 0xE0001000)
T2FEC 001:397.745   CPU_WriteMem(4 bytes @ 0xE0001000)
T2FEC 001:400.879 - 4.242ms
T2FEC 001:400.928 JLINK_IsHalted()
T2FEC 001:401.417 - 0.510ms returns FALSE
T2FEC 001:401.456 JLINK_HasError()
T2FEC 001:405.194 JLINK_IsHalted()
T2FEC 001:405.774 - 0.594ms returns FALSE
T2FEC 001:405.804 JLINK_HasError()
T2FEC 001:407.208 JLINK_IsHalted()
T2FEC 001:410.184   CPU_ReadMem(2 bytes @ 0x20000000)
T2FEC 001:410.920 - 3.735ms returns TRUE
T2FEC 001:410.957 JLINK_ReadReg(R15 (PC))
T2FEC 001:410.976 - 0.025ms returns 0x20000000
T2FEC 001:410.992 JLINK_ClrBPEx(BPHandle = 0x0000000C)
T2FEC 001:411.004 - 0.018ms returns 0x00
T2FEC 001:411.019 JLINK_ReadReg(R0)
T2FEC 001:411.031 - 0.017ms returns 0x00000000
T2FEC 001:411.950 JLINK_WriteMem(0x2000038C, 0x74 Bytes, ...)
T2FEC 001:411.977   Data:  FF F7 75 FF 00 28 01 D0 00 20 10 BD 01 20 FF F7 ...
T2FEC 001:412.014   CPU_WriteMem(116 bytes @ 0x2000038C)
T2FEC 001:413.177 - 1.249ms returns 0x74
T2FEC 001:413.215 JLINK_WriteMem(0x20000400, 0x18C Bytes, ...)
T2FEC 001:413.229   Data:  09 02 47 4A 77 32 89 18 88 B2 4A 22 11 46 03 F0 ...
T2FEC 001:413.261   CPU_WriteMem(396 bytes @ 0x20000400)
T2FEC 001:415.240 - 2.045ms returns 0x18C
T2FEC 001:415.282 JLINK_HasError()
T2FEC 001:415.300 JLINK_WriteReg(R0, 0x00001000)
T2FEC 001:415.319 - 0.024ms returns 0
T2FEC 001:415.335 JLINK_WriteReg(R1, 0x00000200)
T2FEC 001:415.347 - 0.017ms returns 0
T2FEC 001:415.362 JLINK_WriteReg(R2, 0x2000038C)
T2FEC 001:415.373 - 0.016ms returns 0
T2FEC 001:415.388 JLINK_WriteReg(R3, 0x00000000)
T2FEC 001:415.400 - 0.017ms returns 0
T2FEC 001:415.415 JLINK_WriteReg(R4, 0x00000000)
T2FEC 001:415.427 - 0.017ms returns 0
T2FEC 001:415.441 JLINK_WriteReg(R5, 0x00000000)
T2FEC 001:415.453 - 0.017ms returns 0
T2FEC 001:415.468 JLINK_WriteReg(R6, 0x00000000)
T2FEC 001:415.479 - 0.017ms returns 0
T2FEC 001:415.494 JLINK_WriteReg(R7, 0x00000000)
T2FEC 001:415.506 - 0.017ms returns 0
T2FEC 001:415.520 JLINK_WriteReg(R8, 0x00000000)
T2FEC 001:415.532 - 0.017ms returns 0
T2FEC 001:415.546 JLINK_WriteReg(R9, 0x20000388)
T2FEC 001:415.558 - 0.017ms returns 0
T2FEC 001:415.572 JLINK_WriteReg(R10, 0x00000000)
T2FEC 001:415.587 - 0.020ms returns 0
T2FEC 001:415.603 JLINK_WriteReg(R11, 0x00000000)
T2FEC 001:415.614 - 0.017ms returns 0
T2FEC 001:415.629 JLINK_WriteReg(R12, 0x00000000)
T2FEC 001:415.641 - 0.017ms returns 0
T2FEC 001:415.655 JLINK_WriteReg(R13 (SP), 0x20001000)
T2FEC 001:415.668 - 0.018ms returns 0
T2FEC 001:415.683 JLINK_WriteReg(R14, 0x20000001)
T2FEC 001:415.695 - 0.017ms returns 0
T2FEC 001:415.710 JLINK_WriteReg(R15 (PC), 0x20000238)
T2FEC 001:415.722 - 0.017ms returns 0
T2FEC 001:415.737 JLINK_WriteReg(XPSR, 0x01000000)
T2FEC 001:415.748 - 0.017ms returns 0
T2FEC 001:415.763 JLINK_WriteReg(MSP, 0x20001000)
T2FEC 001:415.775 - 0.023ms returns 0
T2FEC 001:415.801 JLINK_WriteReg(PSP, 0x20001000)
T2FEC 001:415.813 - 0.017ms returns 0
T2FEC 001:415.827 JLINK_WriteReg(CFBP, 0x00000000)
T2FEC 001:415.840 - 0.017ms returns 0
T2FEC 001:415.855 JLINK_SetBPEx(Addr = 0x20000000, Type = 0xFFFFFFF2)
T2FEC 001:415.869 - 0.019ms returns 0x0000000D
T2FEC 001:415.883 JLINK_Go()
T2FEC 001:415.907   CPU_ReadMem(4 bytes @ 0xE0001000)
T2FEC 001:416.601   CPU_WriteMem(4 bytes @ 0xE0001000)
T2FEC 001:419.774 - 3.915ms
T2FEC 001:419.817 JLINK_IsHalted()
T2FEC 001:420.426 - 0.620ms returns FALSE
T2FEC 001:420.451 JLINK_HasError()
T2FEC 001:422.104 JLINK_IsHalted()
T2FEC 001:423.150 - 1.070ms returns FALSE
T2FEC 001:423.192 JLINK_HasError()
T2FEC 001:425.028 JLINK_IsHalted()
T2FEC 001:425.895 - 0.886ms returns FALSE
T2FEC 001:425.930 JLINK_HasError()
T2FEC 001:427.017 JLINK_IsHalted()
T2FEC 001:429.690   CPU_ReadMem(2 bytes @ 0x20000000)
T2FEC 001:430.578 - 3.579ms returns TRUE
T2FEC 001:430.613 JLINK_ReadReg(R15 (PC))
T2FEC 001:430.631 - 0.024ms returns 0x20000000
T2FEC 001:430.646 JLINK_ClrBPEx(BPHandle = 0x0000000D)
T2FEC 001:430.659 - 0.017ms returns 0x00
T2FEC 001:430.673 JLINK_ReadReg(R0)
T2FEC 001:430.685 - 0.017ms returns 0x00000000
T2FEC 001:431.528 JLINK_WriteMem(0x2000038C, 0x74 Bytes, ...)
T2FEC 001:431.559   Data:  FD FE 00 28 19 D0 FF F7 B7 FF 00 28 08 D0 FF F7 ...
T2FEC 001:431.597   CPU_WriteMem(116 bytes @ 0x2000038C)
T2FEC 001:432.778 - 1.270ms returns 0x74
T2FEC 001:432.813 JLINK_WriteMem(0x20000400, 0x18C Bytes, ...)
T2FEC 001:432.827   Data:  08 21 74 20 06 F0 4D FC A0 70 09 21 74 20 06 F0 ...
T2FEC 001:432.858   CPU_WriteMem(396 bytes @ 0x20000400)
T2FEC 001:434.883 - 2.088ms returns 0x18C
T2FEC 001:434.918 JLINK_HasError()
T2FEC 001:434.940 JLINK_WriteReg(R0, 0x00001200)
T2FEC 001:434.960 - 0.025ms returns 0
T2FEC 001:434.975 JLINK_WriteReg(R1, 0x00000200)
